T6924 000:022.559   SEGGER J-Link V7.86f Log File
T6924 000:023.097   DLL Compiled: Mar 29 2023 16:29:09
T6924 000:023.118   Logging started @ 2026-04-09 01:39
T6924 000:023.138 - 23.149ms
T6924 000:023.166 JLINK_SetWarnOutHandler(...)
T6924 000:023.188 - 0.031ms
T6924 000:023.210 JLINK_OpenEx(...)
T6924 000:034.712   Firmware: J-Link Pro V4 V12 PLUS Dec compiled 9 2041 12:59:59
T6924 000:036.358   Firmware: J-Link Pro V4 V12 PLUS Dec compiled 9 2041 12:59:59
T6924 000:036.910   Decompressing FW timestamp took 360 us
T6924 000:046.385   Hardware: V12.00
T6924 000:046.567   S/N: 608000039
T6924 000:046.629   OEM: SEGGER
T6924 000:046.683   Feature(s): GDB, RDI, FlashBP, FlashDL, JFlash
T6924 000:082.442   USB speed mode: High speed (480 MBit/s)
T6924 000:084.590   TELNET listener socket opened on port 19021
T6924 000:085.109   WEBSRV WEBSRV_Init(): Starting webserver thread(s)
T6924 000:085.304   WEBSRV Failed to put socket into listener state (port 19080)
T6924 000:085.445   WEBSRV Webserver running on local port 19081
T6924 000:181.059 - 157.918ms returns "O.K."
T6924 000:181.290 JLINK_GetEmuCaps()
T6924 000:181.314 - 0.033ms returns 0xB9FF7BBF
T6924 000:181.349 JLINK_TIF_GetAvailable(...)
T6924 000:212.069 - 30.863ms
T6924 000:212.497 JLINK_SetErrorOutHandler(...)
T6924 000:212.531 - 0.048ms
T6924 000:212.610 JLINK_ExecCommand("ProjectFile = "C:\git\Ergo_Dock\AIP_v1_1\ble\ble_fota_server\Project\uvision5\JLinkSettings.ini"", ...). 
T6924 000:242.663   Ref file found at: D:\Keil_v5\ARM\Segger\JLinkDevices.ref
T6924 000:242.997   XML referenced by ref file: C:\Program Files\SEGGER\JLink\JLinkDevices.xml
T6924 000:243.314   C:\Program Files\SEGGER\JLink\JLinkDevices.xml evaluated successfully.
T6924 000:243.348     Device entry created:  LE501X
T6924 000:243.376       ChipInfo:
T6924 000:243.414         Vendor:          LinkedSemi
T6924 000:243.454         Name:            LE501X
T6924 000:243.498         Core:            JLINK_CORE_CORTEX_M0
T6924 000:243.538         WorkRAMAddr:     0x20000000
T6924 000:243.576         WorkRAMSize:     0x0000C000
T6924 000:243.758         Script:          C:\Program Files\SEGGER\JLink\LinkedSemi\LE501X.jlinkscript
T6924 000:243.798       FlashBankInfo:
T6924 000:243.836         Name:            QSPI Flash
T6924 000:243.875         BaseAddr:        0x18000000
T6924 000:244.140         LoaderInfo:
T6924 000:244.179           Name:            QSPI_Flash
T6924 000:244.217           MaxSize:         0x00080000
T6924 000:244.255           Loader:          C:\Program Files\SEGGER\JLink\LinkedSemi\le501x_flash_algo.elf
T6924 000:244.294           LoaderType:      FLASH_ALGO_TYPE_OPEN
T6924 000:244.368     Device entry created:  LE501X_1M
T6924 000:244.396       ChipInfo:
T6924 000:244.435         Vendor:          LinkedSemi
T6924 000:244.476         Name:            LE501X_1M
T6924 000:244.516         Core:            JLINK_CORE_CORTEX_M0
T6924 000:244.555         WorkRAMAddr:     0x20000000
T6924 000:244.594         WorkRAMSize:     0x0000C000
T6924 000:244.724         Script:          C:\Program Files\SEGGER\JLink\LinkedSemi\LE501X.jlinkscript
T6924 000:244.764       FlashBankInfo:
T6924 000:244.799         Name:            QSPI Flash
T6924 000:244.838         BaseAddr:        0x18000000
T6924 000:245.107         LoaderInfo:
T6924 000:245.146           Name:            QSPI_Flash
T6924 000:245.182           MaxSize:         0x00100000
T6924 000:245.218           Loader:          C:\Program Files\SEGGER\JLink\LinkedSemi\le501x_flash_algo.elf
T6924 000:245.254           LoaderType:      FLASH_ALGO_TYPE_OPEN
T6924 000:245.295     Device entry created:  LE503X
T6924 000:245.319       ChipInfo:
T6924 000:245.355         Vendor:          LinkedSemi
T6924 000:245.392         Name:            LE503X
T6924 000:245.430         Core:            JLINK_CORE_CORTEX_M0
T6924 000:245.467         WorkRAMAddr:     0x20000000
T6924 000:245.502         WorkRAMSize:     0x0000C000
T6924 000:245.640         Script:          C:\Program Files\SEGGER\JLink\LinkedSemi\LE503X.jlinkscript
T6924 000:245.737       FlashBankInfo:
T6924 000:245.775         Name:            QSPI Flash
T6924 000:246.080         LoaderInfo:
T6924 000:246.116           Name:            QSPI_Flash
T6924 000:246.151           MaxSize:         0x00003C00
T6924 000:246.185           Loader:          C:\Program Files\SEGGER\JLink\LinkedSemi\le503x_tk_algo.elf
T6924 000:246.219           LoaderType:      FLASH_ALGO_TYPE_OPEN
T6924 000:246.266     Device entry created:  LM3050
T6924 000:246.294       ChipInfo:
T6924 000:246.329         Vendor:          LinkedSemi
T6924 000:246.363         Name:            LM3050
T6924 000:246.401         Core:            JLINK_CORE_CORTEX_M4
T6924 000:246.439         WorkRAMAddr:     0x20000148
T6924 000:246.473         WorkRAMSize:     0x00001000
T6924 000:246.509       FlashBankInfo:
T6924 000:246.543         Name:            SPI Flash
T6924 000:246.577         BaseAddr:        0x00800000
T6924 000:246.819         LoaderInfo:
T6924 000:246.862           Name:            SPI_Flash
T6924 000:246.897           MaxSize:         0x00080000
T6924 000:246.929           Loader:          C:\Program Files\SEGGER\JLink\LinkedSemi\lm3050_flash_algo.elf
T6924 000:246.971           LoaderType:      FLASH_ALGO_TYPE_OPEN
T6924 000:247.550 - 34.953ms returns 0x00
T6924 000:256.020 JLINK_ExecCommand("Device = LE501X", ...). 
T6924 000:256.713   Flash bank @ 0x18000000: SFL: Parsing sectorization info from ELF file
T6924 000:256.770     FlashDevice.SectorInfo[0]: .SectorSize = 0x00001000, .SectorStartAddr = 0x00000000
T6924 000:256.819   OFL: Init() present @ offset 0x00000001
T6924 000:256.866   OFL: UnInit() present @ offset 0x0000003F
T6924 000:256.913   OFL: EraseSector() present @ offset 0x0000005B
T6924 000:256.959   OFL: ProgramPage() present @ offset 0x00000071
T6924 000:257.005   OFL: EraseChip() present @ offset 0x0000004D
T6924 000:257.051   OFL: BlankCheck() N/A
T6924 000:257.097   OFL: Verify() N/A
T6924 000:257.143   OFL: SEGGER_FL_Erase() N/A
T6924 000:257.192   OFL: SEGGER_OPEN_Erase() N/A
T6924 000:257.239   OFL: SEGGER_FL_Program() N/A
T6924 000:257.285   OFL: SEGGER_OPEN_Program() N/A
T6924 000:257.331   OFL: SEGGER_FL_Read() N/A
T6924 000:257.376   OFL: SEGGER_OPEN_Read() N/A
T6924 000:257.422   OFL: SEGGER_FL_CalcCRC() N/A
T6924 000:257.468   OFL: SEGGER_OPEN_CalcCRC() N/A
T6924 000:257.514   OFL: SEGGER_FL_Start() N/A
T6924 000:257.560   OFL: SEGGER_OPEN_Start() N/A
T6924 000:257.606   OFL: SEGGER_FL_GetFlashInfo() N/A
T6924 000:257.653   OFL: SEGGER_OPEN_GetFlashInfo() N/A
T6924 000:257.699   OFL: SEGGER_FL_Verify() N/A
T6924 000:257.745   OFL: SEGGER_FL_CheckBlank() N/A
T6924 000:257.790   OFL: SEGGER_FL_Prepare() N/A
T6924 000:257.836   OFL: SEGGER_FL_Restore() N/A
T6924 000:257.882   OFL: SEGGER_FL_EraseChip() N/A
T6924 000:263.847   Device "LE501X" selected.
T6924 000:264.911 - 8.835ms returns 0x00
T6924 000:264.971 JLINK_ExecCommand("DisableConnectionTimeout", ...). 
T6924 000:265.011 - 0.019ms returns 0x01
T6924 000:265.047 JLINK_GetHardwareVersion()
T6924 000:265.078 - 0.046ms returns 120000
T6924 000:265.118 JLINK_GetDLLVersion()
T6924 000:265.149 - 0.046ms returns 78606
T6924 000:265.183 JLINK_GetOEMString(...)
T6924 000:265.216 JLINK_GetFirmwareString(...)
T6924 000:265.248 - 0.046ms
T6924 000:279.220 JLINK_GetDLLVersion()
T6924 000:279.279 - 0.070ms returns 78606
T6924 000:279.303 JLINK_GetCompileDateTime()
T6924 000:279.328 - 0.037ms
T6924 000:289.225 JLINK_GetFirmwareString(...)
T6924 000:289.301 - 0.091ms
T6924 000:293.134 JLINK_GetHardwareVersion()
T6924 000:293.196 - 0.077ms returns 120000
T6924 000:297.390 JLINK_GetSN()
T6924 000:297.545 - 0.176ms returns 608000039
T6924 000:302.183 JLINK_GetOEMString(...)
T6924 000:308.313 JLINK_TIF_Select(JLINKARM_TIF_SWD)
T6924 000:314.812 - 6.554ms returns 0x00
T6924 000:315.091 JLINK_HasError()
T6924 000:315.140 JLINK_SetSpeed(5000)
T6924 000:316.029 - 0.933ms
T6924 000:316.186 JLINK_GetId()
T6924 000:332.669   ConfigTargetSettings() start
T6924 000:332.768    J-Link Script File: Executing ConfigTargetSettings()
T6924 000:336.223   ConfigTargetSettings() end - Took 61us
T6924 000:343.255   Found SW-DP with ID 0x0BB11477
T6924 000:354.727   DPIDR: 0x0BB11477
T6924 000:357.991   CoreSight SoC-400 or earlier
T6924 000:362.990   Scanning AP map to find all available APs
T6924 000:370.669   AP[1]: Stopped AP scan as end of AP map has been reached
T6924 000:374.007   AP[0]: AHB-AP (IDR: 0x04770021)
T6924 000:377.291   Iterating through AP map to find AHB-AP to use
T6924 000:383.822   AP[0]: Core found
T6924 000:386.829   AP[0]: AHB-AP ROM base: 0xE00FF000
T6924 000:391.669   CPUID register: 0x410CC200. Implementer code: 0x41 (ARM)
T6924 000:394.187   Found Cortex-M0 r0p0, Little endian.
T6924 000:397.801   -- Max. mem block: 0x00004348
T6924 000:401.522   CPU_ReadMem(4 bytes @ 0xE000EDF0)
T6924 000:402.264   CPU_ReadMem(4 bytes @ 0xE0002000)
T6924 000:407.324   FPUnit: 4 code (BP) slots and 0 literal slots
T6924 000:407.390   CPU_ReadMem(4 bytes @ 0xE000EDFC)
T6924 000:408.017   CPU_ReadMem(4 bytes @ 0xE0001000)
T6924 000:408.562   CPU_WriteMem(4 bytes @ 0xE0001000)
T6924 000:413.017   CoreSight components:
T6924 000:416.342   ROMTbl[0] @ E00FF000
T6924 000:416.417   CPU_ReadMem(64 bytes @ 0xE00FF000)
T6924 000:417.458   CPU_ReadMem(32 bytes @ 0xE000EFE0)
T6924 000:421.623   [0][0]: E000E000 CID B105E00D PID 000BB008 SCS
T6924 000:421.698   CPU_ReadMem(32 bytes @ 0xE0001FE0)
T6924 000:425.950   [0][1]: E0001000 CID B105E00D PID 000BB00A DWT
T6924 000:426.017   CPU_ReadMem(32 bytes @ 0xE0002FE0)
T6924 000:430.283   [0][2]: E0002000 CID B105E00D PID 000BB00B FPB
T6924 000:431.045 - 114.906ms returns 0x0BB11477
T6924 000:431.214 JLINK_GetDLLVersion()
T6924 000:431.247 - 0.046ms returns 78606
T6924 000:431.279 JLINK_CORE_GetFound()
T6924 000:431.304 - 0.038ms returns 0x60000FF
T6924 000:431.343 JLINK_GetDebugInfo(0x100 = JLINKARM_ROM_TABLE_ADDR_INDEX)
T6924 000:431.403   Value=0xE00FF000
T6924 000:431.444 - 0.116ms returns 0
T6924 000:435.418 JLINK_GetDebugInfo(0x100 = JLINKARM_ROM_TABLE_ADDR_INDEX)
T6924 000:435.472   Value=0xE00FF000
T6924 000:435.508 - 0.101ms returns 0
T6924 000:435.535 JLINK_GetDebugInfo(0x101 = JLINKARM_DEBUG_INFO_ETM_ADDR_INDEX)
T6924 000:435.560   Value=0x00000000
T6924 000:435.595 - 0.072ms returns 0
T6924 000:435.622 JLINK_ReadMemEx(0xE0041FF0, 0x10 Bytes, Flags = 0x02000004)
T6924 000:435.678   CPU_ReadMem(16 bytes @ 0xE0041FF0)
T6924 000:436.412   Data:  00 00 00 00 00 00 00 00 00 00 00 00 00 00 00 00
T6924 000:436.487 - 0.877ms returns 16 (0x10)
T6924 000:436.631 JLINK_GetDebugInfo(0x102 = JLINKARM_DEBUG_INFO_MTB_ADDR_INDEX)
T6924 000:436.673   Value=0x00000000
T6924 000:436.719 - 0.102ms returns 0
T6924 000:436.752 JLINK_GetDebugInfo(0x103 = JLINKARM_DEBUG_INFO_TPIU_ADDR_INDEX)
T6924 000:436.784   Value=0x00000000
T6924 000:436.829 - 0.091ms returns 0
T6924 000:436.862 JLINK_ReadMemEx(0xE0040FF0, 0x10 Bytes, Flags = 0x02000004)
T6924 000:437.020   CPU_ReadMem(16 bytes @ 0xE0040FF0)
T6924 000:438.181   Data:  00 00 00 00 00 00 00 00 00 00 00 00 00 00 00 00
T6924 000:438.247 - 1.398ms returns 16 (0x10)
T6924 000:438.371 JLINK_GetDebugInfo(0x104 = JLINKARM_DEBUG_INFO_ITM_ADDR_INDEX)
T6924 000:438.401   Value=0xE0000000
T6924 000:438.439 - 0.084ms returns 0
T6924 000:438.470 JLINK_GetDebugInfo(0x105 = JLINKARM_DEBUG_INFO_DWT_ADDR_INDEX)
T6924 000:438.496   Value=0xE0001000
T6924 000:438.533 - 0.076ms returns 0
T6924 000:438.561 JLINK_GetDebugInfo(0x106 = JLINKARM_DEBUG_INFO_FPB_ADDR_INDEX)
T6924 000:438.587   Value=0xE0002000
T6924 000:438.624 - 0.075ms returns 0
T6924 000:438.651 JLINK_GetDebugInfo(0x107 = JLINKARM_DEBUG_INFO_NVIC_ADDR_INDEX)
T6924 000:438.676   Value=0xE000E000
T6924 000:438.713 - 0.075ms returns 0
T6924 000:438.740 JLINK_GetDebugInfo(0x10C = JLINKARM_DEBUG_INFO_DBG_ADDR_INDEX)
T6924 000:438.766   Value=0xE000EDF0
T6924 000:438.803 - 0.076ms returns 0
T6924 000:438.831 JLINK_ReadMemU32(0xE000ED00, 0x1 Items)
T6924 000:438.866   CPU_ReadMem(4 bytes @ 0xE000ED00)
T6924 000:439.939   Data:  00 C2 0C 41
T6924 000:439.998   Debug reg: CPUID
T6924 000:440.035 - 1.217ms returns 1 (0x1)
T6924 000:440.147 JLINK_GetDebugInfo(0x10F = JLINKARM_DEBUG_INFO_HAS_CORTEX_M_SECURITY_EXT_INDEX)
T6924 000:440.176   Value=0x00000000
T6924 000:440.213 - 0.078ms returns 0
T6924 000:440.242 JLINK_HasError()
T6924 000:440.270 JLINK_SetResetType(JLINKARM_CM3_RESET_TYPE_NORMAL)
T6924 000:440.298 - 0.040ms returns JLINKARM_CM3_RESET_TYPE_NORMAL
T6924 000:440.327 JLINK_Reset()
T6924 000:443.944   CPU is running
T6924 000:444.018   CPU_WriteMem(4 bytes @ 0xE000EDF0)
T6924 000:445.857   CPU is running
T6924 000:445.949   CPU_WriteMem(4 bytes @ 0xE000EDFC)
T6924 000:451.173   Reset: Halt core after reset via DEMCR.VC_CORERESET.
T6924 000:460.850   Reset: Reset device via AIRCR.SYSRESETREQ.
T6924 000:460.942   CPU is running
T6924 000:460.999   CPU_WriteMem(4 bytes @ 0xE000ED0C)
T6924 000:520.852   CPU_ReadMem(4 bytes @ 0xE000EDF0)
T6924 000:521.858   CPU_ReadMem(4 bytes @ 0xE000EDF0)
T6924 000:526.474   CPU_WriteMem(4 bytes @ 0xE000EDFC)
T6924 000:533.555   CPU_ReadMem(4 bytes @ 0xE000EDF0)
T6924 000:543.858   AfterResetTarget() start
T6924 000:543.935    J-Link Script File: Executing AfterResetTarget()
T6924 000:544.006   CPU_WriteMem(4 bytes @ 0x40021004)
T6924 000:547.093   CPU_WriteMem(4 bytes @ 0x40021040)
T6924 000:552.910   AfterResetTarget() end - Took 4.26ms
T6924 000:553.013   CPU_WriteMem(4 bytes @ 0xE0002000)
T6924 000:554.037   CPU_ReadMem(4 bytes @ 0xE000EDFC)
T6924 000:556.686   CPU_ReadMem(4 bytes @ 0xE0001000)
T6924 000:557.472   CPU_WriteMem(4 bytes @ 0xE0001000)
T6924 000:558.860 - 118.593ms
T6924 000:559.095 JLINK_Halt()
T6924 000:559.133 - 0.054ms returns 0x00
T6924 000:559.209 JLINK_ReadMemU32(0xE000EDF0, 0x1 Items)
T6924 000:559.256   CPU_ReadMem(4 bytes @ 0xE000EDF0)
T6924 000:560.433   Data:  03 00 03 00
T6924 000:560.515   Debug reg: DHCSR
T6924 000:560.561 - 1.368ms returns 1 (0x1)
T6924 000:560.724 JLINK_WriteU32_64(0xE000EDF0, 0xA05F0003)
T6924 000:560.760   Debug reg: DHCSR
T6924 000:561.338   CPU_WriteMem(4 bytes @ 0xE000EDF0)
T6924 000:562.355 - 1.731ms returns 0 (0x00000000)
T6924 000:562.620 JLINK_WriteU32_64(0xE000EDFC, 0x01000000)
T6924 000:562.674   Debug reg: DEMCR
T6924 000:562.743   CPU_WriteMem(4 bytes @ 0xE000EDFC)
T6924 000:578.153 - 15.584ms returns 0 (0x00000000)
T6924 000:598.612 JLINK_GetHWStatus(...)
T6924 000:601.475 - 2.921ms returns 0
T6924 000:613.248 JLINK_GetNumBPUnits(Type = 0xFFFFFF00)
T6924 000:613.329 - 0.097ms returns 0x04
T6924 000:613.365 JLINK_GetNumBPUnits(Type = 0xF0)
T6924 000:613.396 - 0.047ms returns 0x2000
T6924 000:613.430 JLINK_GetNumWPUnits()
T6924 000:613.461 - 0.046ms returns 2
T6924 000:625.554 JLINK_GetSpeed()
T6924 000:625.616 - 0.076ms returns 5000
T6924 000:632.061 JLINK_ReadMemU32(0xE000E004, 0x1 Items)
T6924 000:632.150   CPU_ReadMem(4 bytes @ 0xE000E004)
T6924 000:635.221   Data:  00 00 00 00
T6924 000:635.317 - 3.275ms returns 1 (0x1)
T6924 000:635.523 JLINK_Halt()
T6924 000:635.565 - 0.060ms returns 0x00
T6924 000:635.621 JLINK_IsHalted()
T6924 000:635.666 - 0.062ms returns TRUE
T6924 000:648.704 JLINK_WriteMem(0x20000000, 0x77E Bytes, ...)
T6924 000:648.767   Data:  00 BE 0A E0 0D 78 2D 06 68 40 08 24 40 00 00 D3 ...
T6924 000:649.270   CPU_WriteMem(1918 bytes @ 0x20000000)
T6924 000:662.038 - 13.387ms returns 0x77E
T6924 000:662.347 JLINK_HasError()
T6924 000:662.391 JLINK_WriteReg(R0, 0x18000000)
T6924 000:662.428 - 0.051ms returns 0
T6924 000:662.460 JLINK_WriteReg(R1, 0x00B71B00)
T6924 000:662.489 - 0.044ms returns 0
T6924 000:662.520 JLINK_WriteReg(R2, 0x00000001)
T6924 000:662.549 - 0.043ms returns 0
T6924 000:662.580 JLINK_WriteReg(R3, 0x00000000)
T6924 000:662.610 - 0.044ms returns 0
T6924 000:662.641 JLINK_WriteReg(R4, 0x00000000)
T6924 000:662.670 - 0.043ms returns 0
T6924 000:662.701 JLINK_WriteReg(R5, 0x00000000)
T6924 000:662.730 - 0.044ms returns 0
T6924 000:662.762 JLINK_WriteReg(R6, 0x00000000)
T6924 000:662.791 - 0.057ms returns 0
T6924 000:662.986 JLINK_WriteReg(R7, 0x00000000)
T6924 000:663.027 - 0.056ms returns 0
T6924 000:663.060 JLINK_WriteReg(R8, 0x00000000)
T6924 000:663.097 - 0.053ms returns 0
T6924 000:663.131 JLINK_WriteReg(R9, 0x2000077E)
T6924 000:663.172 - 0.061ms returns 0
T6924 000:663.210 JLINK_WriteReg(R10, 0x00000000)
T6924 000:663.242 - 0.046ms returns 0
T6924 000:663.278 JLINK_WriteReg(R11, 0x00000000)
T6924 000:663.309 - 0.046ms returns 0
T6924 000:663.342 JLINK_WriteReg(R12, 0x00000000)
T6924 000:663.373 - 0.046ms returns 0
T6924 000:663.405 JLINK_WriteReg(R13 (SP), 0x20001000)
T6924 000:663.436 - 0.045ms returns 0
T6924 000:663.467 JLINK_WriteReg(R14, 0x20000001)
T6924 000:663.496 - 0.043ms returns 0
T6924 000:663.527 JLINK_WriteReg(R15 (PC), 0x20000038)
T6924 000:663.569 - 0.056ms returns 0
T6924 000:663.600 JLINK_WriteReg(XPSR, 0x01000000)
T6924 000:663.630 - 0.044ms returns 0
T6924 000:663.667 JLINK_WriteReg(MSP, 0x20001000)
T6924 000:663.700 - 0.046ms returns 0
T6924 000:663.731 JLINK_WriteReg(PSP, 0x20001000)
T6924 000:663.760 - 0.043ms returns 0
T6924 000:663.791 JLINK_WriteReg(CFBP, 0x00000000)
T6924 000:663.820 - 0.043ms returns 0
T6924 000:663.851 JLINK_SetBPEx(Addr = 0x20000000, Type = 0xFFFFFFF2)
T6924 000:663.960   CPU_ReadMem(2 bytes @ 0x20000000)
T6924 000:665.088 - 1.286ms returns 0x00000001
T6924 000:665.325 JLINK_Go()
T6924 000:665.372   CPU_WriteMem(2 bytes @ 0x20000000)
T6924 000:666.278   CPU_ReadMem(4 bytes @ 0xE0001000)
T6924 000:667.053   CPU_WriteMem(4 bytes @ 0xE0001000)
T6924 000:668.062   CPU_WriteMem(4 bytes @ 0xE0002008)
T6924 000:668.150   CPU_WriteMem(4 bytes @ 0xE000200C)
T6924 000:668.197   CPU_WriteMem(4 bytes @ 0xE0002010)
T6924 000:668.243   CPU_WriteMem(4 bytes @ 0xE0002014)
T6924 000:669.567   CPU_WriteMem(4 bytes @ 0xE0001004)
T6924 000:672.765 - 7.490ms
T6924 000:673.012 JLINK_IsHalted()
T6924 000:676.161   CPU_ReadMem(2 bytes @ 0x20000000)
T6924 000:677.041 - 4.087ms returns TRUE
T6924 000:677.262 JLINK_ReadReg(R15 (PC))
T6924 000:677.310 - 0.065ms returns 0x20000000
T6924 000:677.348 JLINK_ClrBPEx(BPHandle = 0x00000001)
T6924 000:677.387 - 0.055ms returns 0x00
T6924 000:677.428 JLINK_ReadReg(R0)
T6924 000:677.462 - 0.051ms returns 0x00000000
T6924 000:678.489 JLINK_HasError()
T6924 000:678.568 JLINK_WriteReg(R0, 0x18034000)
T6924 000:678.607 - 0.056ms returns 0
T6924 000:678.644 JLINK_WriteReg(R1, 0x00001000)
T6924 000:678.678 - 0.051ms returns 0
T6924 000:678.714 JLINK_WriteReg(R2, 0x000000FF)
T6924 000:678.747 - 0.055ms returns 0
T6924 000:678.788 JLINK_WriteReg(R3, 0x00000000)
T6924 000:678.822 - 0.050ms returns 0
T6924 000:678.859 JLINK_WriteReg(R4, 0x00000000)
T6924 000:678.897 - 0.054ms returns 0
T6924 000:678.975 JLINK_WriteReg(R5, 0x00000000)
T6924 000:679.037 - 0.079ms returns 0
T6924 000:679.074 JLINK_WriteReg(R6, 0x00000000)
T6924 000:679.108 - 0.054ms returns 0
T6924 000:679.148 JLINK_WriteReg(R7, 0x00000000)
T6924 000:679.182 - 0.051ms returns 0
T6924 000:679.218 JLINK_WriteReg(R8, 0x00000000)
T6924 000:679.253 - 0.052ms returns 0
T6924 000:679.290 JLINK_WriteReg(R9, 0x2000077E)
T6924 000:679.326 - 0.054ms returns 0
T6924 000:679.364 JLINK_WriteReg(R10, 0x00000000)
T6924 000:679.398 - 0.052ms returns 0
T6924 000:679.441 JLINK_WriteReg(R11, 0x00000000)
T6924 000:679.477 - 0.055ms returns 0
T6924 000:679.516 JLINK_WriteReg(R12, 0x00000000)
T6924 000:679.553 - 0.054ms returns 0
T6924 000:679.591 JLINK_WriteReg(R13 (SP), 0x20001000)
T6924 000:679.629 - 0.055ms returns 0
T6924 000:679.665 JLINK_WriteReg(R14, 0x20000001)
T6924 000:679.699 - 0.054ms returns 0
T6924 000:679.746 JLINK_WriteReg(R15 (PC), 0x20000020)
T6924 000:679.785 - 0.055ms returns 0
T6924 000:679.820 JLINK_WriteReg(XPSR, 0x01000000)
T6924 000:679.854 - 0.050ms returns 0
T6924 000:679.889 JLINK_WriteReg(MSP, 0x20001000)
T6924 000:679.923 - 0.050ms returns 0
T6924 000:679.959 JLINK_WriteReg(PSP, 0x20001000)
T6924 000:679.993 - 0.050ms returns 0
T6924 000:680.029 JLINK_WriteReg(CFBP, 0x00000000)
T6924 000:680.062 - 0.081ms returns 0
T6924 000:680.136 JLINK_SetBPEx(Addr = 0x20000000, Type = 0xFFFFFFF2)
T6924 000:680.175 - 0.055ms returns 0x00000002
T6924 000:680.211 JLINK_Go()
T6924 000:680.262   CPU_ReadMem(4 bytes @ 0xE0001000)
T6924 000:684.041 - 3.931ms
T6924 000:684.287 JLINK_IsHalted()
T6924 000:687.311   CPU_ReadMem(2 bytes @ 0x20000000)
T6924 000:689.203 - 4.967ms returns TRUE
T6924 000:689.473 JLINK_ReadReg(R15 (PC))
T6924 000:689.512 - 0.062ms returns 0x20000000
T6924 000:689.558 JLINK_ClrBPEx(BPHandle = 0x00000002)
T6924 000:689.591 - 0.047ms returns 0x00
T6924 000:689.633 JLINK_ReadReg(R0)
T6924 000:689.664 - 0.046ms returns 0x00000001
T6924 000:689.699 JLINK_HasError()
T6924 000:689.732 JLINK_WriteReg(R0, 0x18034000)
T6924 000:689.766 - 0.052ms returns 0
T6924 000:689.802 JLINK_WriteReg(R1, 0x00001000)
T6924 000:689.834 - 0.046ms returns 0
T6924 000:689.867 JLINK_WriteReg(R2, 0x000000FF)
T6924 000:689.898 - 0.046ms returns 0
T6924 000:689.930 JLINK_WriteReg(R3, 0x00000000)
T6924 000:689.961 - 0.046ms returns 0
T6924 000:689.994 JLINK_WriteReg(R4, 0x00000000)
T6924 000:690.025 - 0.059ms returns 0
T6924 000:690.079 JLINK_WriteReg(R5, 0x00000000)
T6924 000:690.110 - 0.046ms returns 0
T6924 000:690.144 JLINK_WriteReg(R6, 0x00000000)
T6924 000:690.182 - 0.053ms returns 0
T6924 000:690.216 JLINK_WriteReg(R7, 0x00000000)
T6924 000:690.247 - 0.049ms returns 0
T6924 000:690.285 JLINK_WriteReg(R8, 0x00000000)
T6924 000:690.316 - 0.046ms returns 0
T6924 000:690.352 JLINK_WriteReg(R9, 0x2000077E)
T6924 000:690.385 - 0.049ms returns 0
T6924 000:690.420 JLINK_WriteReg(R10, 0x00000000)
T6924 000:690.454 - 0.049ms returns 0
T6924 000:690.489 JLINK_WriteReg(R11, 0x00000000)
T6924 000:690.523 - 0.060ms returns 0
T6924 000:690.569 JLINK_WriteReg(R12, 0x00000000)
T6924 000:690.602 - 0.048ms returns 0
T6924 000:690.635 JLINK_WriteReg(R13 (SP), 0x20001000)
T6924 000:690.674 - 0.054ms returns 0
T6924 000:690.708 JLINK_WriteReg(R14, 0x20000001)
T6924 000:690.744 - 0.052ms returns 0
T6924 000:690.778 JLINK_WriteReg(R15 (PC), 0x20000092)
T6924 000:690.811 - 0.055ms returns 0
T6924 000:690.851 JLINK_WriteReg(XPSR, 0x01000000)
T6924 000:690.883 - 0.048ms returns 0
T6924 000:690.920 JLINK_WriteReg(MSP, 0x20001000)
T6924 000:690.956 - 0.052ms returns 0
T6924 000:690.990 JLINK_WriteReg(PSP, 0x20001000)
T6924 000:691.028 - 0.060ms returns 0
T6924 000:691.068 JLINK_WriteReg(CFBP, 0x00000000)
T6924 000:691.099 - 0.046ms returns 0
T6924 000:691.132 JLINK_SetBPEx(Addr = 0x20000000, Type = 0xFFFFFFF2)
T6924 000:691.165 - 0.049ms returns 0x00000003
T6924 000:691.199 JLINK_Go()
T6924 000:691.247   CPU_ReadMem(4 bytes @ 0xE0001000)
T6924 000:707.277 - 16.180ms
T6924 000:707.516 JLINK_IsHalted()
T6924 000:708.311 - 0.844ms returns FALSE
T6924 000:708.497 JLINK_HasError()
T6924 000:737.845 JLINK_IsHalted()
T6924 000:751.908   CPU_ReadMem(2 bytes @ 0x20000000)
T6924 000:752.750 - 14.956ms returns TRUE
T6924 000:752.947 JLINK_ReadReg(R15 (PC))
T6924 000:752.990 - 0.058ms returns 0x20000000
T6924 000:753.037 JLINK_ClrBPEx(BPHandle = 0x00000003)
T6924 000:753.105 - 0.084ms returns 0x00
T6924 000:753.139 JLINK_ReadReg(R0)
T6924 000:753.171 - 0.046ms returns 0x00000000
T6924 000:754.112 JLINK_HasError()
T6924 000:754.162 JLINK_WriteReg(R0, 0x18035000)
T6924 000:754.198 - 0.051ms returns 0
T6924 000:754.231 JLINK_WriteReg(R1, 0x00001000)
T6924 000:754.263 - 0.047ms returns 0
T6924 000:754.296 JLINK_WriteReg(R2, 0x000000FF)
T6924 000:754.327 - 0.046ms returns 0
T6924 000:754.360 JLINK_WriteReg(R3, 0x00000000)
T6924 000:754.391 - 0.046ms returns 0
T6924 000:754.424 JLINK_WriteReg(R4, 0x00000000)
T6924 000:754.455 - 0.046ms returns 0
T6924 000:754.488 JLINK_WriteReg(R5, 0x00000000)
T6924 000:754.519 - 0.046ms returns 0
T6924 000:754.551 JLINK_WriteReg(R6, 0x00000000)
T6924 000:754.583 - 0.046ms returns 0
T6924 000:754.615 JLINK_WriteReg(R7, 0x00000000)
T6924 000:754.646 - 0.046ms returns 0
T6924 000:754.679 JLINK_WriteReg(R8, 0x00000000)
T6924 000:754.710 - 0.046ms returns 0
T6924 000:754.751 JLINK_WriteReg(R9, 0x2000077E)
T6924 000:754.789 - 0.052ms returns 0
T6924 000:754.821 JLINK_WriteReg(R10, 0x00000000)
T6924 000:754.857 - 0.051ms returns 0
T6924 000:754.890 JLINK_WriteReg(R11, 0x00000000)
T6924 000:754.921 - 0.046ms returns 0
T6924 000:754.954 JLINK_WriteReg(R12, 0x00000000)
T6924 000:754.985 - 0.046ms returns 0
T6924 000:755.017 JLINK_WriteReg(R13 (SP), 0x20001000)
T6924 000:755.050 - 0.047ms returns 0
T6924 000:755.083 JLINK_WriteReg(R14, 0x20000001)
T6924 000:755.114 - 0.046ms returns 0
T6924 000:755.146 JLINK_WriteReg(R15 (PC), 0x20000020)
T6924 000:755.178 - 0.046ms returns 0
T6924 000:755.210 JLINK_WriteReg(XPSR, 0x01000000)
T6924 000:755.241 - 0.046ms returns 0
T6924 000:755.274 JLINK_WriteReg(MSP, 0x20001000)
T6924 000:755.305 - 0.046ms returns 0
T6924 000:755.338 JLINK_WriteReg(PSP, 0x20001000)
T6924 000:755.369 - 0.046ms returns 0
T6924 000:755.402 JLINK_WriteReg(CFBP, 0x00000000)
T6924 000:755.433 - 0.046ms returns 0
T6924 000:755.466 JLINK_SetBPEx(Addr = 0x20000000, Type = 0xFFFFFFF2)
T6924 000:755.500 - 0.049ms returns 0x00000004
T6924 000:755.533 JLINK_Go()
T6924 000:755.580   CPU_ReadMem(4 bytes @ 0xE0001000)
T6924 000:759.400 - 3.951ms
T6924 000:759.608 JLINK_IsHalted()
T6924 000:762.864   CPU_ReadMem(2 bytes @ 0x20000000)
T6924 000:765.689 - 6.134ms returns TRUE
T6924 000:765.878 JLINK_ReadReg(R15 (PC))
T6924 000:765.920 - 0.058ms returns 0x20000000
T6924 000:765.972 JLINK_ClrBPEx(BPHandle = 0x00000004)
T6924 000:766.023 - 0.066ms returns 0x00
T6924 000:766.056 JLINK_ReadReg(R0)
T6924 000:766.087 - 0.046ms returns 0x00000001
T6924 000:766.122 JLINK_HasError()
T6924 000:766.157 JLINK_WriteReg(R0, 0x18035000)
T6924 000:766.190 - 0.048ms returns 0
T6924 000:766.223 JLINK_WriteReg(R1, 0x00001000)
T6924 000:766.255 - 0.046ms returns 0
T6924 000:766.287 JLINK_WriteReg(R2, 0x000000FF)
T6924 000:766.325 - 0.052ms returns 0
T6924 000:766.358 JLINK_WriteReg(R3, 0x00000000)
T6924 000:766.388 - 0.046ms returns 0
T6924 000:766.421 JLINK_WriteReg(R4, 0x00000000)
T6924 000:766.452 - 0.046ms returns 0
T6924 000:766.485 JLINK_WriteReg(R5, 0x00000000)
T6924 000:766.515 - 0.046ms returns 0
T6924 000:766.549 JLINK_WriteReg(R6, 0x00000000)
T6924 000:766.580 - 0.046ms returns 0
T6924 000:766.612 JLINK_WriteReg(R7, 0x00000000)
T6924 000:766.643 - 0.046ms returns 0
T6924 000:766.676 JLINK_WriteReg(R8, 0x00000000)
T6924 000:766.707 - 0.046ms returns 0
T6924 000:766.740 JLINK_WriteReg(R9, 0x2000077E)
T6924 000:766.771 - 0.046ms returns 0
T6924 000:766.804 JLINK_WriteReg(R10, 0x00000000)
T6924 000:766.835 - 0.046ms returns 0
T6924 000:766.868 JLINK_WriteReg(R11, 0x00000000)
T6924 000:766.899 - 0.046ms returns 0
T6924 000:766.932 JLINK_WriteReg(R12, 0x00000000)
T6924 000:766.963 - 0.046ms returns 0
T6924 000:766.996 JLINK_WriteReg(R13 (SP), 0x20001000)
T6924 000:767.028 - 0.047ms returns 0
T6924 000:767.060 JLINK_WriteReg(R14, 0x20000001)
T6924 000:767.091 - 0.046ms returns 0
T6924 000:767.124 JLINK_WriteReg(R15 (PC), 0x20000092)
T6924 000:767.156 - 0.046ms returns 0
T6924 000:767.188 JLINK_WriteReg(XPSR, 0x01000000)
T6924 000:767.219 - 0.046ms returns 0
T6924 000:767.252 JLINK_WriteReg(MSP, 0x20001000)
T6924 000:767.283 - 0.049ms returns 0
T6924 000:767.319 JLINK_WriteReg(PSP, 0x20001000)
T6924 000:767.350 - 0.046ms returns 0
T6924 000:767.382 JLINK_WriteReg(CFBP, 0x00000000)
T6924 000:767.413 - 0.046ms returns 0
T6924 000:767.446 JLINK_SetBPEx(Addr = 0x20000000, Type = 0xFFFFFFF2)
T6924 000:767.480 - 0.048ms returns 0x00000005
T6924 000:767.513 JLINK_Go()
T6924 000:767.559   CPU_ReadMem(4 bytes @ 0xE0001000)
T6924 000:771.135 - 3.695ms
T6924 000:771.352 JLINK_IsHalted()
T6924 000:772.825 - 1.526ms returns FALSE
T6924 000:773.022 JLINK_HasError()
T6924 000:774.875 JLINK_IsHalted()
T6924 000:789.012   CPU_ReadMem(2 bytes @ 0x20000000)
T6924 000:791.189 - 16.361ms returns TRUE
T6924 000:791.367 JLINK_ReadReg(R15 (PC))
T6924 000:791.406 - 0.053ms returns 0x20000000
T6924 000:791.446 JLINK_ClrBPEx(BPHandle = 0x00000005)
T6924 000:791.503 - 0.078ms returns 0x00
T6924 000:791.553 JLINK_ReadReg(R0)
T6924 000:791.585 - 0.047ms returns 0x00000000
T6924 000:792.359 JLINK_HasError()
T6924 000:792.408 JLINK_WriteReg(R0, 0x18036000)
T6924 000:792.441 - 0.047ms returns 0
T6924 000:792.472 JLINK_WriteReg(R1, 0x00001000)
T6924 000:792.502 - 0.044ms returns 0
T6924 000:792.533 JLINK_WriteReg(R2, 0x000000FF)
T6924 000:792.562 - 0.043ms returns 0
T6924 000:792.593 JLINK_WriteReg(R3, 0x00000000)
T6924 000:792.622 - 0.043ms returns 0
T6924 000:792.653 JLINK_WriteReg(R4, 0x00000000)
T6924 000:792.681 - 0.043ms returns 0
T6924 000:792.712 JLINK_WriteReg(R5, 0x00000000)
T6924 000:792.741 - 0.044ms returns 0
T6924 000:792.772 JLINK_WriteReg(R6, 0x00000000)
T6924 000:792.805 - 0.046ms returns 0
T6924 000:792.836 JLINK_WriteReg(R7, 0x00000000)
T6924 000:792.865 - 0.043ms returns 0
T6924 000:792.896 JLINK_WriteReg(R8, 0x00000000)
T6924 000:792.925 - 0.043ms returns 0
T6924 000:792.956 JLINK_WriteReg(R9, 0x2000077E)
T6924 000:792.986 - 0.043ms returns 0
T6924 000:793.017 JLINK_WriteReg(R10, 0x00000000)
T6924 000:793.046 - 0.044ms returns 0
T6924 000:793.077 JLINK_WriteReg(R11, 0x00000000)
T6924 000:793.106 - 0.043ms returns 0
T6924 000:793.137 JLINK_WriteReg(R12, 0x00000000)
T6924 000:793.166 - 0.043ms returns 0
T6924 000:793.197 JLINK_WriteReg(R13 (SP), 0x20001000)
T6924 000:793.227 - 0.044ms returns 0
T6924 000:793.258 JLINK_WriteReg(R14, 0x20000001)
T6924 000:793.287 - 0.043ms returns 0
T6924 000:793.317 JLINK_WriteReg(R15 (PC), 0x20000020)
T6924 000:793.347 - 0.043ms returns 0
T6924 000:793.378 JLINK_WriteReg(XPSR, 0x01000000)
T6924 000:793.407 - 0.043ms returns 0
T6924 000:793.438 JLINK_WriteReg(MSP, 0x20001000)
T6924 000:793.467 - 0.043ms returns 0
T6924 000:793.498 JLINK_WriteReg(PSP, 0x20001000)
T6924 000:793.527 - 0.043ms returns 0
T6924 000:793.558 JLINK_WriteReg(CFBP, 0x00000000)
T6924 000:793.587 - 0.043ms returns 0
T6924 000:793.618 JLINK_SetBPEx(Addr = 0x20000000, Type = 0xFFFFFFF2)
T6924 000:793.651 - 0.046ms returns 0x00000006
T6924 000:793.682 JLINK_Go()
T6924 000:793.725   CPU_ReadMem(4 bytes @ 0xE0001000)
T6924 000:797.513 - 3.887ms
T6924 000:797.706 JLINK_IsHalted()
T6924 000:801.138   CPU_ReadMem(2 bytes @ 0x20000000)
T6924 000:802.113 - 4.457ms returns TRUE
T6924 000:802.322 JLINK_ReadReg(R15 (PC))
T6924 000:802.420 - 0.114ms returns 0x20000000
T6924 000:802.456 JLINK_ClrBPEx(BPHandle = 0x00000006)
T6924 000:802.489 - 0.048ms returns 0x00
T6924 000:802.522 JLINK_ReadReg(R0)
T6924 000:802.554 - 0.047ms returns 0x00000001
T6924 000:802.588 JLINK_HasError()
T6924 000:802.622 JLINK_WriteReg(R0, 0x18036000)
T6924 000:802.655 - 0.048ms returns 0
T6924 000:802.688 JLINK_WriteReg(R1, 0x00001000)
T6924 000:802.726 - 0.053ms returns 0
T6924 000:802.760 JLINK_WriteReg(R2, 0x000000FF)
T6924 000:802.791 - 0.046ms returns 0
T6924 000:802.824 JLINK_WriteReg(R3, 0x00000000)
T6924 000:802.855 - 0.046ms returns 0
T6924 000:802.888 JLINK_WriteReg(R4, 0x00000000)
T6924 000:802.920 - 0.046ms returns 0
T6924 000:802.952 JLINK_WriteReg(R5, 0x00000000)
T6924 000:802.984 - 0.046ms returns 0
T6924 000:803.017 JLINK_WriteReg(R6, 0x00000000)
T6924 000:803.048 - 0.046ms returns 0
T6924 000:803.081 JLINK_WriteReg(R7, 0x00000000)
T6924 000:803.112 - 0.046ms returns 0
T6924 000:803.145 JLINK_WriteReg(R8, 0x00000000)
T6924 000:803.176 - 0.046ms returns 0
T6924 000:803.209 JLINK_WriteReg(R9, 0x2000077E)
T6924 000:803.240 - 0.046ms returns 0
T6924 000:803.273 JLINK_WriteReg(R10, 0x00000000)
T6924 000:803.322 - 0.065ms returns 0
T6924 000:803.356 JLINK_WriteReg(R11, 0x00000000)
T6924 000:803.388 - 0.047ms returns 0
T6924 000:803.421 JLINK_WriteReg(R12, 0x00000000)
T6924 000:803.453 - 0.047ms returns 0
T6924 000:803.486 JLINK_WriteReg(R13 (SP), 0x20001000)
T6924 000:803.518 - 0.047ms returns 0
T6924 000:803.551 JLINK_WriteReg(R14, 0x20000001)
T6924 000:803.582 - 0.046ms returns 0
T6924 000:803.615 JLINK_WriteReg(R15 (PC), 0x20000092)
T6924 000:803.646 - 0.046ms returns 0
T6924 000:803.679 JLINK_WriteReg(XPSR, 0x01000000)
T6924 000:803.797 - 0.133ms returns 0
T6924 000:803.830 JLINK_WriteReg(MSP, 0x20001000)
T6924 000:803.861 - 0.046ms returns 0
T6924 000:803.895 JLINK_WriteReg(PSP, 0x20001000)
T6924 000:803.926 - 0.046ms returns 0
T6924 000:803.959 JLINK_WriteReg(CFBP, 0x00000000)
T6924 000:803.990 - 0.046ms returns 0
T6924 000:804.024 JLINK_SetBPEx(Addr = 0x20000000, Type = 0xFFFFFFF2)
T6924 000:804.057 - 0.048ms returns 0x00000007
T6924 000:804.090 JLINK_Go()
T6924 000:804.137   CPU_ReadMem(4 bytes @ 0xE0001000)
T6924 000:808.359 - 4.350ms
T6924 000:808.577 JLINK_IsHalted()
T6924 000:809.925 - 1.401ms returns FALSE
T6924 000:810.114 JLINK_HasError()
T6924 000:813.311 JLINK_IsHalted()
T6924 000:826.873   CPU_ReadMem(2 bytes @ 0x20000000)
T6924 000:829.706 - 16.450ms returns TRUE
T6924 000:829.903 JLINK_ReadReg(R15 (PC))
T6924 000:829.944 - 0.056ms returns 0x20000000
T6924 000:829.982 JLINK_ClrBPEx(BPHandle = 0x00000007)
T6924 000:830.014 - 0.048ms returns 0x00
T6924 000:830.050 JLINK_ReadReg(R0)
T6924 000:830.082 - 0.047ms returns 0x00000000
T6924 000:831.264 JLINK_HasError()
T6924 000:831.382 JLINK_WriteReg(R0, 0x18037000)
T6924 000:831.419 - 0.081ms returns 0
T6924 000:831.508 JLINK_WriteReg(R1, 0x00001000)
T6924 000:831.545 - 0.051ms returns 0
T6924 000:831.576 JLINK_WriteReg(R2, 0x000000FF)
T6924 000:831.606 - 0.044ms returns 0
T6924 000:831.637 JLINK_WriteReg(R3, 0x00000000)
T6924 000:831.666 - 0.043ms returns 0
T6924 000:831.697 JLINK_WriteReg(R4, 0x00000000)
T6924 000:831.726 - 0.043ms returns 0
T6924 000:831.757 JLINK_WriteReg(R5, 0x00000000)
T6924 000:831.786 - 0.043ms returns 0
T6924 000:831.817 JLINK_WriteReg(R6, 0x00000000)
T6924 000:831.846 - 0.043ms returns 0
T6924 000:831.877 JLINK_WriteReg(R7, 0x00000000)
T6924 000:831.906 - 0.043ms returns 0
T6924 000:831.937 JLINK_WriteReg(R8, 0x00000000)
T6924 000:831.966 - 0.043ms returns 0
T6924 000:831.997 JLINK_WriteReg(R9, 0x2000077E)
T6924 000:832.026 - 0.043ms returns 0
T6924 000:832.057 JLINK_WriteReg(R10, 0x00000000)
T6924 000:832.086 - 0.043ms returns 0
T6924 000:832.117 JLINK_WriteReg(R11, 0x00000000)
T6924 000:832.146 - 0.043ms returns 0
T6924 000:832.177 JLINK_WriteReg(R12, 0x00000000)
T6924 000:832.206 - 0.043ms returns 0
T6924 000:832.308 JLINK_WriteReg(R13 (SP), 0x20001000)
T6924 000:832.381 - 0.088ms returns 0
T6924 000:832.416 JLINK_WriteReg(R14, 0x20000001)
T6924 000:832.448 - 0.046ms returns 0
T6924 000:832.479 JLINK_WriteReg(R15 (PC), 0x20000020)
T6924 000:832.509 - 0.044ms returns 0
T6924 000:832.540 JLINK_WriteReg(XPSR, 0x01000000)
T6924 000:832.569 - 0.043ms returns 0
T6924 000:832.600 JLINK_WriteReg(MSP, 0x20001000)
T6924 000:832.629 - 0.043ms returns 0
T6924 000:832.660 JLINK_WriteReg(PSP, 0x20001000)
T6924 000:832.689 - 0.043ms returns 0
T6924 000:832.719 JLINK_WriteReg(CFBP, 0x00000000)
T6924 000:832.748 - 0.043ms returns 0
T6924 000:832.780 JLINK_SetBPEx(Addr = 0x20000000, Type = 0xFFFFFFF2)
T6924 000:832.813 - 0.047ms returns 0x00000008
T6924 000:832.844 JLINK_Go()
T6924 000:832.889   CPU_ReadMem(4 bytes @ 0xE0001000)
T6924 000:838.981 - 6.197ms
T6924 000:839.199 JLINK_IsHalted()
T6924 000:842.854   CPU_ReadMem(2 bytes @ 0x20000000)
T6924 000:843.868 - 4.726ms returns TRUE
T6924 000:844.085 JLINK_ReadReg(R15 (PC))
T6924 000:844.132 - 0.065ms returns 0x20000000
T6924 000:844.172 JLINK_ClrBPEx(BPHandle = 0x00000008)
T6924 000:844.212 - 0.058ms returns 0x00
T6924 000:844.251 JLINK_ReadReg(R0)
T6924 000:844.287 - 0.059ms returns 0x00000001
T6924 000:844.333 JLINK_HasError()
T6924 000:844.372 JLINK_WriteReg(R0, 0x18037000)
T6924 000:844.410 - 0.059ms returns 0
T6924 000:844.453 JLINK_WriteReg(R1, 0x00001000)
T6924 000:844.494 - 0.058ms returns 0
T6924 000:844.533 JLINK_WriteReg(R2, 0x000000FF)
T6924 000:844.569 - 0.054ms returns 0
T6924 000:844.608 JLINK_WriteReg(R3, 0x00000000)
T6924 000:844.644 - 0.054ms returns 0
T6924 000:844.683 JLINK_WriteReg(R4, 0x00000000)
T6924 000:844.720 - 0.055ms returns 0
T6924 000:844.759 JLINK_WriteReg(R5, 0x00000000)
T6924 000:844.807 - 0.073ms returns 0
T6924 000:844.852 JLINK_WriteReg(R6, 0x00000000)
T6924 000:844.889 - 0.054ms returns 0
T6924 000:844.928 JLINK_WriteReg(R7, 0x00000000)
T6924 000:844.967 - 0.056ms returns 0
T6924 000:845.005 JLINK_WriteReg(R8, 0x00000000)
T6924 000:845.042 - 0.054ms returns 0
T6924 000:845.080 JLINK_WriteReg(R9, 0x2000077E)
T6924 000:845.116 - 0.054ms returns 0
T6924 000:845.155 JLINK_WriteReg(R10, 0x00000000)
T6924 000:845.192 - 0.055ms returns 0
T6924 000:845.231 JLINK_WriteReg(R11, 0x00000000)
T6924 000:845.269 - 0.056ms returns 0
T6924 000:845.307 JLINK_WriteReg(R12, 0x00000000)
T6924 000:845.343 - 0.051ms returns 0
T6924 000:845.380 JLINK_WriteReg(R13 (SP), 0x20001000)
T6924 000:845.414 - 0.050ms returns 0
T6924 000:845.449 JLINK_WriteReg(R14, 0x20000001)
T6924 000:845.483 - 0.050ms returns 0
T6924 000:845.518 JLINK_WriteReg(R15 (PC), 0x20000092)
T6924 000:845.552 - 0.050ms returns 0
T6924 000:845.587 JLINK_WriteReg(XPSR, 0x01000000)
T6924 000:845.621 - 0.049ms returns 0
T6924 000:845.656 JLINK_WriteReg(MSP, 0x20001000)
T6924 000:845.689 - 0.050ms returns 0
T6924 000:845.725 JLINK_WriteReg(PSP, 0x20001000)
T6924 000:845.758 - 0.049ms returns 0
T6924 000:845.793 JLINK_WriteReg(CFBP, 0x00000000)
T6924 000:845.826 - 0.049ms returns 0
T6924 000:845.862 JLINK_SetBPEx(Addr = 0x20000000, Type = 0xFFFFFFF2)
T6924 000:845.897 - 0.051ms returns 0x00000009
T6924 000:845.933 JLINK_Go()
T6924 000:845.981   CPU_ReadMem(4 bytes @ 0xE0001000)
T6924 000:850.061 - 4.182ms
T6924 000:850.259 JLINK_IsHalted()
T6924 000:853.437 - 3.235ms returns FALSE
T6924 000:853.653 JLINK_HasError()
T6924 000:855.523 JLINK_IsHalted()
T6924 000:870.251   CPU_ReadMem(2 bytes @ 0x20000000)
T6924 000:871.192 - 15.724ms returns TRUE
T6924 000:871.397 JLINK_ReadReg(R15 (PC))
T6924 000:871.442 - 0.061ms returns 0x20000000
T6924 000:871.479 JLINK_ClrBPEx(BPHandle = 0x00000009)
T6924 000:871.514 - 0.052ms returns 0x00
T6924 000:871.554 JLINK_ReadReg(R0)
T6924 000:871.587 - 0.050ms returns 0x00000000
T6924 000:874.446 JLINK_HasError()
T6924 000:874.512 JLINK_WriteReg(R0, 0x18038000)
T6924 000:874.546 - 0.048ms returns 0
T6924 000:874.578 JLINK_WriteReg(R1, 0x00001000)
T6924 000:874.607 - 0.043ms returns 0
T6924 000:874.638 JLINK_WriteReg(R2, 0x000000FF)
T6924 000:874.667 - 0.043ms returns 0
T6924 000:874.698 JLINK_WriteReg(R3, 0x00000000)
T6924 000:874.727 - 0.043ms returns 0
T6924 000:874.758 JLINK_WriteReg(R4, 0x00000000)
T6924 000:874.786 - 0.043ms returns 0
T6924 000:874.817 JLINK_WriteReg(R5, 0x00000000)
T6924 000:874.851 - 0.047ms returns 0
T6924 000:874.881 JLINK_WriteReg(R6, 0x00000000)
T6924 000:874.910 - 0.043ms returns 0
T6924 000:874.941 JLINK_WriteReg(R7, 0x00000000)
T6924 000:874.970 - 0.043ms returns 0
T6924 000:875.000 JLINK_WriteReg(R8, 0x00000000)
T6924 000:875.029 - 0.043ms returns 0
T6924 000:875.060 JLINK_WriteReg(R9, 0x2000077E)
T6924 000:875.089 - 0.043ms returns 0
T6924 000:875.119 JLINK_WriteReg(R10, 0x00000000)
T6924 000:875.148 - 0.043ms returns 0
T6924 000:875.179 JLINK_WriteReg(R11, 0x00000000)
T6924 000:875.208 - 0.043ms returns 0
T6924 000:875.239 JLINK_WriteReg(R12, 0x00000000)
T6924 000:875.268 - 0.043ms returns 0
T6924 000:875.299 JLINK_WriteReg(R13 (SP), 0x20001000)
T6924 000:875.329 - 0.044ms returns 0
T6924 000:875.360 JLINK_WriteReg(R14, 0x20000001)
T6924 000:875.388 - 0.043ms returns 0
T6924 000:875.419 JLINK_WriteReg(R15 (PC), 0x20000020)
T6924 000:875.448 - 0.043ms returns 0
T6924 000:875.479 JLINK_WriteReg(XPSR, 0x01000000)
T6924 000:875.508 - 0.043ms returns 0
T6924 000:875.539 JLINK_WriteReg(MSP, 0x20001000)
T6924 000:875.568 - 0.043ms returns 0
T6924 000:875.598 JLINK_WriteReg(PSP, 0x20001000)
T6924 000:875.627 - 0.043ms returns 0
T6924 000:875.658 JLINK_WriteReg(CFBP, 0x00000000)
T6924 000:875.687 - 0.043ms returns 0
T6924 000:875.718 JLINK_SetBPEx(Addr = 0x20000000, Type = 0xFFFFFFF2)
T6924 000:875.749 - 0.045ms returns 0x0000000A
T6924 000:875.780 JLINK_Go()
T6924 000:875.826   CPU_ReadMem(4 bytes @ 0xE0001000)
T6924 000:880.857 - 5.133ms
T6924 000:881.065 JLINK_IsHalted()
T6924 000:886.309   CPU_ReadMem(2 bytes @ 0x20000000)
T6924 000:887.355 - 6.343ms returns TRUE
T6924 000:887.553 JLINK_ReadReg(R15 (PC))
T6924 000:887.598 - 0.061ms returns 0x20000000
T6924 000:887.635 JLINK_ClrBPEx(BPHandle = 0x0000000A)
T6924 000:887.671 - 0.051ms returns 0x00
T6924 000:887.707 JLINK_ReadReg(R0)
T6924 000:887.745 - 0.055ms returns 0x00000001
T6924 000:887.783 JLINK_HasError()
T6924 000:887.820 JLINK_WriteReg(R0, 0x18038000)
T6924 000:887.855 - 0.052ms returns 0
T6924 000:887.893 JLINK_WriteReg(R1, 0x00001000)
T6924 000:887.927 - 0.050ms returns 0
T6924 000:887.962 JLINK_WriteReg(R2, 0x000000FF)
T6924 000:887.995 - 0.049ms returns 0
T6924 000:888.031 JLINK_WriteReg(R3, 0x00000000)
T6924 000:888.064 - 0.049ms returns 0
T6924 000:888.099 JLINK_WriteReg(R4, 0x00000000)
T6924 000:888.133 - 0.050ms returns 0
T6924 000:888.168 JLINK_WriteReg(R5, 0x00000000)
T6924 000:888.202 - 0.050ms returns 0
T6924 000:888.237 JLINK_WriteReg(R6, 0x00000000)
T6924 000:888.276 - 0.055ms returns 0
T6924 000:888.312 JLINK_WriteReg(R7, 0x00000000)
T6924 000:888.346 - 0.050ms returns 0
T6924 000:888.381 JLINK_WriteReg(R8, 0x00000000)
T6924 000:888.414 - 0.049ms returns 0
T6924 000:888.449 JLINK_WriteReg(R9, 0x2000077E)
T6924 000:888.482 - 0.049ms returns 0
T6924 000:888.517 JLINK_WriteReg(R10, 0x00000000)
T6924 000:888.551 - 0.050ms returns 0
T6924 000:888.586 JLINK_WriteReg(R11, 0x00000000)
T6924 000:888.620 - 0.049ms returns 0
T6924 000:888.656 JLINK_WriteReg(R12, 0x00000000)
T6924 000:888.689 - 0.049ms returns 0
T6924 000:888.724 JLINK_WriteReg(R13 (SP), 0x20001000)
T6924 000:888.758 - 0.050ms returns 0
T6924 000:888.793 JLINK_WriteReg(R14, 0x20000001)
T6924 000:888.827 - 0.049ms returns 0
T6924 000:888.862 JLINK_WriteReg(R15 (PC), 0x20000092)
T6924 000:888.895 - 0.050ms returns 0
T6924 000:888.931 JLINK_WriteReg(XPSR, 0x01000000)
T6924 000:888.965 - 0.050ms returns 0
T6924 000:889.000 JLINK_WriteReg(MSP, 0x20001000)
T6924 000:889.033 - 0.049ms returns 0
T6924 000:889.069 JLINK_WriteReg(PSP, 0x20001000)
T6924 000:889.102 - 0.050ms returns 0
T6924 000:889.137 JLINK_WriteReg(CFBP, 0x00000000)
T6924 000:889.172 - 0.049ms returns 0
T6924 000:889.205 JLINK_SetBPEx(Addr = 0x20000000, Type = 0xFFFFFFF2)
T6924 000:889.237 - 0.048ms returns 0x0000000B
T6924 000:889.270 JLINK_Go()
T6924 000:889.314   CPU_ReadMem(4 bytes @ 0xE0001000)
T6924 000:893.246 - 4.029ms
T6924 000:893.433 JLINK_IsHalted()
T6924 000:895.453 - 2.069ms returns FALSE
T6924 000:895.639 JLINK_HasError()
T6924 000:898.814 JLINK_IsHalted()
T6924 000:912.702   CPU_ReadMem(2 bytes @ 0x20000000)
T6924 000:913.780 - 15.019ms returns TRUE
T6924 000:913.958 JLINK_ReadReg(R15 (PC))
T6924 000:913.997 - 0.053ms returns 0x20000000
T6924 000:914.030 JLINK_ClrBPEx(BPHandle = 0x0000000B)
T6924 000:914.060 - 0.045ms returns 0x00
T6924 000:914.092 JLINK_ReadReg(R0)
T6924 000:914.122 - 0.044ms returns 0x00000000
T6924 000:915.032 JLINK_HasError()
T6924 000:915.072 JLINK_WriteReg(R0, 0x18039000)
T6924 000:915.102 - 0.044ms returns 0
T6924 000:915.132 JLINK_WriteReg(R1, 0x00001000)
T6924 000:915.160 - 0.041ms returns 0
T6924 000:915.188 JLINK_WriteReg(R2, 0x000000FF)
T6924 000:915.216 - 0.040ms returns 0
T6924 000:915.245 JLINK_WriteReg(R3, 0x00000000)
T6924 000:915.272 - 0.040ms returns 0
T6924 000:915.301 JLINK_WriteReg(R4, 0x00000000)
T6924 000:915.329 - 0.042ms returns 0
T6924 000:915.360 JLINK_WriteReg(R5, 0x00000000)
T6924 000:915.389 - 0.043ms returns 0
T6924 000:915.419 JLINK_WriteReg(R6, 0x00000000)
T6924 000:915.448 - 0.043ms returns 0
T6924 000:915.479 JLINK_WriteReg(R7, 0x00000000)
T6924 000:915.508 - 0.043ms returns 0
T6924 000:915.538 JLINK_WriteReg(R8, 0x00000000)
T6924 000:915.567 - 0.043ms returns 0
T6924 000:915.598 JLINK_WriteReg(R9, 0x2000077E)
T6924 000:915.627 - 0.043ms returns 0
T6924 000:915.658 JLINK_WriteReg(R10, 0x00000000)
T6924 000:915.688 - 0.044ms returns 0
T6924 000:915.721 JLINK_WriteReg(R11, 0x00000000)
T6924 000:915.763 - 0.057ms returns 0
T6924 000:915.795 JLINK_WriteReg(R12, 0x00000000)
T6924 000:915.824 - 0.043ms returns 0
T6924 000:915.854 JLINK_WriteReg(R13 (SP), 0x20001000)
T6924 000:915.884 - 0.044ms returns 0
T6924 000:915.915 JLINK_WriteReg(R14, 0x20000001)
T6924 000:915.944 - 0.043ms returns 0
T6924 000:915.974 JLINK_WriteReg(R15 (PC), 0x20000020)
T6924 000:916.004 - 0.043ms returns 0
T6924 000:916.034 JLINK_WriteReg(XPSR, 0x01000000)
T6924 000:916.064 - 0.043ms returns 0
T6924 000:916.094 JLINK_WriteReg(MSP, 0x20001000)
T6924 000:916.123 - 0.043ms returns 0
T6924 000:916.154 JLINK_WriteReg(PSP, 0x20001000)
T6924 000:916.183 - 0.043ms returns 0
T6924 000:916.214 JLINK_WriteReg(CFBP, 0x00000000)
T6924 000:916.242 - 0.042ms returns 0
T6924 000:916.274 JLINK_SetBPEx(Addr = 0x20000000, Type = 0xFFFFFFF2)
T6924 000:916.305 - 0.046ms returns 0x0000000C
T6924 000:916.336 JLINK_Go()
T6924 000:916.379   CPU_ReadMem(4 bytes @ 0xE0001000)
T6924 000:919.795 - 3.557ms
T6924 000:920.079 JLINK_IsHalted()
T6924 000:923.593   CPU_ReadMem(2 bytes @ 0x20000000)
T6924 000:925.736 - 5.710ms returns TRUE
T6924 000:925.938 JLINK_ReadReg(R15 (PC))
T6924 000:925.981 - 0.060ms returns 0x20000000
T6924 000:926.018 JLINK_ClrBPEx(BPHandle = 0x0000000C)
T6924 000:926.054 - 0.051ms returns 0x00
T6924 000:926.101 JLINK_ReadReg(R0)
T6924 000:926.135 - 0.050ms returns 0x00000001
T6924 000:926.172 JLINK_HasError()
T6924 000:926.212 JLINK_WriteReg(R0, 0x18039000)
T6924 000:926.252 - 0.060ms returns 0
T6924 000:926.295 JLINK_WriteReg(R1, 0x00001000)
T6924 000:926.332 - 0.055ms returns 0
T6924 000:926.371 JLINK_WriteReg(R2, 0x000000FF)
T6924 000:926.416 - 0.062ms returns 0
T6924 000:926.454 JLINK_WriteReg(R3, 0x00000000)
T6924 000:926.493 - 0.057ms returns 0
T6924 000:926.532 JLINK_WriteReg(R4, 0x00000000)
T6924 000:926.578 - 0.064ms returns 0
T6924 000:926.620 JLINK_WriteReg(R5, 0x00000000)
T6924 000:926.659 - 0.058ms returns 0
T6924 000:926.711 JLINK_WriteReg(R6, 0x00000000)
T6924 000:926.749 - 0.057ms returns 0
T6924 000:926.790 JLINK_WriteReg(R7, 0x00000000)
T6924 000:926.827 - 0.054ms returns 0
T6924 000:926.865 JLINK_WriteReg(R8, 0x00000000)
T6924 000:926.901 - 0.054ms returns 0
T6924 000:926.940 JLINK_WriteReg(R9, 0x2000077E)
T6924 000:926.976 - 0.054ms returns 0
T6924 000:927.014 JLINK_WriteReg(R10, 0x00000000)
T6924 000:927.050 - 0.051ms returns 0
T6924 000:927.085 JLINK_WriteReg(R11, 0x00000000)
T6924 000:927.119 - 0.050ms returns 0
T6924 000:927.154 JLINK_WriteReg(R12, 0x00000000)
T6924 000:927.187 - 0.049ms returns 0
T6924 000:927.223 JLINK_WriteReg(R13 (SP), 0x20001000)
T6924 000:927.257 - 0.050ms returns 0
T6924 000:927.293 JLINK_WriteReg(R14, 0x20000001)
T6924 000:927.326 - 0.050ms returns 0
T6924 000:927.362 JLINK_WriteReg(R15 (PC), 0x20000092)
T6924 000:927.395 - 0.050ms returns 0
T6924 000:927.431 JLINK_WriteReg(XPSR, 0x01000000)
T6924 000:927.464 - 0.050ms returns 0
T6924 000:927.500 JLINK_WriteReg(MSP, 0x20001000)
T6924 000:927.535 - 0.052ms returns 0
T6924 000:927.571 JLINK_WriteReg(PSP, 0x20001000)
T6924 000:927.604 - 0.049ms returns 0
T6924 000:927.651 JLINK_WriteReg(CFBP, 0x00000000)
T6924 000:927.690 - 0.055ms returns 0
T6924 000:927.726 JLINK_SetBPEx(Addr = 0x20000000, Type = 0xFFFFFFF2)
T6924 000:927.761 - 0.052ms returns 0x0000000D
T6924 000:927.797 JLINK_Go()
T6924 000:927.844   CPU_ReadMem(4 bytes @ 0xE0001000)
T6924 000:933.360 - 5.613ms
T6924 000:933.546 JLINK_IsHalted()
T6924 000:934.458 - 0.960ms returns FALSE
T6924 000:934.639 JLINK_HasError()
T6924 000:975.790 JLINK_IsHalted()
T6924 000:979.349   CPU_ReadMem(2 bytes @ 0x20000000)
T6924 000:980.074 - 4.354ms returns TRUE
T6924 000:980.341 JLINK_ReadReg(R15 (PC))
T6924 000:980.384 - 0.060ms returns 0x20000000
T6924 000:980.496 JLINK_ClrBPEx(BPHandle = 0x0000000D)
T6924 000:980.531 - 0.051ms returns 0x00
T6924 000:980.567 JLINK_ReadReg(R0)
T6924 000:980.598 - 0.046ms returns 0x00000000
T6924 000:981.663 JLINK_HasError()
T6924 000:981.736 JLINK_WriteReg(R0, 0x1803A000)
T6924 000:981.786 - 0.066ms returns 0
T6924 000:981.823 JLINK_WriteReg(R1, 0x00001000)
T6924 000:981.855 - 0.047ms returns 0
T6924 000:981.889 JLINK_WriteReg(R2, 0x000000FF)
T6924 000:981.922 - 0.048ms returns 0
T6924 000:981.957 JLINK_WriteReg(R3, 0x00000000)
T6924 000:981.994 - 0.052ms returns 0
T6924 000:982.027 JLINK_WriteReg(R4, 0x00000000)
T6924 000:982.059 - 0.051ms returns 0
T6924 000:982.097 JLINK_WriteReg(R5, 0x00000000)
T6924 000:982.128 - 0.049ms returns 0
T6924 000:982.165 JLINK_WriteReg(R6, 0x00000000)
T6924 000:982.198 - 0.049ms returns 0
T6924 000:982.234 JLINK_WriteReg(R7, 0x00000000)
T6924 000:982.267 - 0.048ms returns 0
T6924 000:982.304 JLINK_WriteReg(R8, 0x00000000)
T6924 000:982.338 - 0.050ms returns 0
T6924 000:982.378 JLINK_WriteReg(R9, 0x2000077E)
T6924 000:982.633 - 0.274ms returns 0
T6924 000:982.676 JLINK_WriteReg(R10, 0x00000000)
T6924 000:982.715 - 0.056ms returns 0
T6924 000:982.750 JLINK_WriteReg(R11, 0x00000000)
T6924 000:982.784 - 0.050ms returns 0
T6924 000:982.818 JLINK_WriteReg(R12, 0x00000000)
T6924 000:982.850 - 0.048ms returns 0
T6924 000:982.885 JLINK_WriteReg(R13 (SP), 0x20001000)
T6924 000:982.925 - 0.058ms returns 0
T6924 000:982.964 JLINK_WriteReg(R14, 0x20000001)
T6924 000:982.996 - 0.048ms returns 0
T6924 000:983.032 JLINK_WriteReg(R15 (PC), 0x20000020)
T6924 000:983.065 - 0.050ms returns 0
T6924 000:983.100 JLINK_WriteReg(XPSR, 0x01000000)
T6924 000:983.131 - 0.046ms returns 0
T6924 000:983.164 JLINK_WriteReg(MSP, 0x20001000)
T6924 000:983.196 - 0.047ms returns 0
T6924 000:983.229 JLINK_WriteReg(PSP, 0x20001000)
T6924 000:983.259 - 0.046ms returns 0
T6924 000:983.293 JLINK_WriteReg(CFBP, 0x00000000)
T6924 000:983.393 - 0.115ms returns 0
T6924 000:983.431 JLINK_SetBPEx(Addr = 0x20000000, Type = 0xFFFFFFF2)
T6924 000:983.466 - 0.050ms returns 0x0000000E
